# GHZ S DB R 50.000000000000
0.001000000000 0.035780817951 -2.727134606617
0.006999000000 -0.068512327021 -18.177868307816
0.012998000000 -0.098175476498 -33.328955277906
0.018997000000 -0.121918147031 -47.918367513534
0.024996000000 -0.169931816344 -62.690586830236
0.030995000000 -0.244573515282 -77.508064593096
0.036994000000 -0.317628726682 -92.704393269713
0.042993000000 -1.199164980224 -107.299486353543
0.048992000000 -0.910737788557 -113.170846479043
0.054991000000 -0.591837358319 -126.214143575709
0.060990000000 -0.653705213760 -137.539972647711
0.066989000000 -0.439878845237 -149.499879509839
0.072988000000 -0.398490201298 -161.073264560387
0.078987000000 -0.398390597099 -172.458115369807
0.084986000000 -0.415466458602 176.558317043962
0.090985000000 -0.430850076465 165.958017821630
0.096984000000 -0.450248814720 155.425292651640
0.102983000000 -0.456469015861 145.008219698205
0.108982000000 -0.458833281928 134.694246629801
0.114981000000 -0.457983778004 124.425905867278
0.120980000000 -0.473868251741 114.194010219950
0.126979000000 -0.492288278818 103.988382561278
0.132978000000 -0.499688884477 93.693855204261
0.138977000000 -0.556712650114 82.582654760958
0.144976000000 -1.002877656714 69.631610449080
0.150975000000 -1.905378452132 64.366730738546
0.156974000000 -1.850031036479 61.601434038475
0.162973000000 -1.024256937075 53.395012616670
0.168972000000 -0.670492717911 42.057432285805
0.174971000000 -0.545799690980 30.685842408547
0.180970000000 -0.504636446409 19.595337170628
0.186969000000 -0.482394718343 8.679433191792
0.192968000000 -0.471100249522 -2.130107922503
0.198967000000 -0.469040210265 -12.999419822973
0.204966000000 -0.463821501354 -23.963188307022
0.210965000000 -0.469244263689 -35.145872486516
0.216964000000 -0.498939472946 -46.711542696129
0.222963000000 -0.569980208279 -58.500361332841
0.228962000000 -0.694861264482 -70.550702720775
0.234961000000 -0.858705149707 -82.717697960345
0.240960000000 -1.086863757958 -94.787020535662
0.246959000000 -1.297472472993 -105.891842845760
0.252958000000 -1.408666307305 -116.850771725362
0.258957000000 -1.309055647581 -127.982293455263
0.264956000000 -1.202004267829 -140.526418373915
0.270955000000 -1.187975808591 -153.615724030691
0.276954000000 -1.168309478183 -167.044060727787
0.282953000000 -1.195537660211 179.266201269466
0.288952000000 -1.242685335386 165.433832055749
0.294951000000 -1.261574767842 151.476928911453
0.300950000000 -1.263853302676 137.118973005454
0.306949000000 -1.266568938269 122.440050113269
0.312948000000 -1.299365227655 107.563244609001
0.318947000000 -1.361105935858 92.760176293972
0.324946000000 -1.441464606169 78.405192981929
0.330945000000 -1.437482171451 64.299990279650
0.336944000000 -1.412290201338 50.130439563837
0.342943000000 -1.387516623850 35.933426872151
0.348942000000 -1.363022696107 22.032601995894
0.354941000000 -1.328982703746 8.259426229020
0.360940000000 -1.312524028246 -5.331114882847
0.366939000000 -1.310088993863 -18.457052251150
0.372938000000 -1.305524315251 -31.218945294375
0.378937000000 -1.313740591349 -43.627200582814
0.384936000000 -1.340966417723 -55.620948470490
0.390935000000 -1.367682504424 -67.109399382011
0.396934000000 -1.400931860548 -78.220157716160
0.402933000000 -1.413195245379 -88.967962018811
0.408932000000 -1.433560672019 -99.602464948050
0.414931000000 -1.477242787014 -110.007863344252
0.420930000000 -1.559041137337 -120.036677533877
0.426929000000 -1.609981606349 -129.272244314907
0.432928000000 -1.597949879456 -138.352483730344
0.438927000000 -1.535886485281 -147.353903912481
0.444926000000 -1.449638005921 -156.513018095214
0.450925000000 -1.372151335694 -165.769323729882
0.456924000000 -1.274271680584 -175.077602875000
0.462923000000 -1.200411553129 175.293883970281
0.468922000000 -1.132406568133 165.617009542846
0.474921000000 -1.094013181046 155.730719203770
0.480920000000 -1.086630361552 145.810449712929
0.486919000000 -1.086903229758 135.780614278836
0.492918000000 -1.103243109470 125.607824867222
0.498917000000 -1.140337435147 115.262902850953
0.504916000000 -1.201881159353 104.793854814993
0.510915000000 -1.255253599029 94.044197016179
0.516914000000 -1.340415610448 82.923831232755
0.522913000000 -1.445723370946 71.463090679420
0.528912000000 -1.594005756816 59.435050660356
0.534911000000 -1.783587256536 47.094640109078
0.540910000000 -2.017124478601 34.404225020514
0.546909000000 -2.265081322345 21.673851464036
0.552908000000 -2.463852072521 8.701845233976
0.558907000000 -2.621731152443 -4.900038656243
0.564906000000 -2.763167809122 -19.074174636780
0.570905000000 -2.864053913370 -33.966703327042
0.576904000000 -2.963743608625 -49.580447634046
0.582903000000 -3.034297980387 -65.775866067069
0.588902000000 -3.065876747125 -82.787254907631
0.594901000000 -3.128273799255 -100.224485682667
0.600900000000 -3.168713489039 -117.471487531925
0.606899000000 -3.163983372339 -134.770185396697
0.612898000000 -3.152082216894 -151.812972798553
0.618897000000 -3.134974002274 -168.430694041224
0.624896000000 -3.109453773441 175.426416410092
0.630895000000 -3.125052500263 159.497508928224
0.636894000000 -3.232294961161 143.981831593411
0.642893000000 -3.486114371849 129.360489725824
0.648892000000 -3.831074809793 116.901811377064
0.654891000000 -3.915855966453 106.578576989914
0.660890000000 -3.687074779530 95.794100053792
0.666889000000 -3.442607079570 83.711276127827
0.672888000000 -3.312928515926 71.386024368560
0.678887000000 -3.241285649914 59.259053128355
0.684886000000 -3.228709279136 47.336337169536
0.690885000000 -3.253776868154 35.759929178860
0.696884000000 -3.336334750056 24.455019294684
0.702883000000 -3.420680124545 13.563782068930
0.708882000000 -3.493496381248 2.787268256866
0.714881000000 -3.572778263594 -8.003933599253
0.720880000000 -3.690187707217 -18.727454343025
0.726879000000 -3.782420494508 -29.020455349349
0.732878000000 -3.813100295049 -39.708263788156
0.738877000000 -3.871313445430 -50.803162113624
0.744876000000 -3.983699502074 -62.205107659096
0.750875000000 -4.163051253656 -73.740834005152
0.756874000000 -4.371474406969 -85.571772562141
0.762873000000 -4.697672756688 -97.528202015809
0.768872000000 -5.053603138415 -109.547000663559
0.774871000000 -5.432330234758 -122.213370313158
0.780870000000 -5.913335469886 -136.557028137204
0.786869000000 -6.875045954071 -151.689559440010
0.792868000000 -8.067354669705 -164.783042481455
0.798867000000 -9.233020059430 -177.246321213216
0.804866000000 -10.372460533902 169.043117508442
0.810865000000 -11.902038614850 152.898628338588
0.816864000000 -13.797674219757 135.425493269460
0.822863000000 -16.074894289835 113.663306125527
0.828862000000 -18.859594758428 85.212910048851
0.834861000000 -20.993865448266 47.034449122937
0.840860000000 -20.516773758259 3.545080573761
0.846859000000 -18.287349858576 -33.311011257619
0.852858000000 -16.406333919997 -60.376273664682
0.858857000000 -14.967332382232 -80.421223732513
0.864856000000 -13.920767809041 -96.309871759609
0.870855000000 -13.146555850232 -110.449839022552
0.876854000000 -12.737727868357 -122.345712940334
0.882853000000 -12.350881083758 -131.797537018721
0.888852000000 -11.798206904665 -141.310662504341
0.894851000000 -11.359649280002 -152.213783019966
0.900850000000 -11.278083013646 -163.246588804526
0.906849000000 -11.278628270468 -172.877133023181
0.912848000000 -11.305546226363 177.138121490214
0.918847000000 -11.354815317509 165.788195487317
0.924846000000 -12.077162201768 152.158762852573
0.930845000000 -13.447571612825 142.828002977719
0.936844000000 -14.742941756969 136.100068407022
0.942843000000 -16.122665578082 131.774001846449
0.948842000000 -17.637713748673 127.861312187443
0.954841000000 -19.531930059698 129.381801118205
0.960840000000 -20.989393131931 135.589516422041
0.966839000000 -21.948081113243 148.755899154559
0.972838000000 -21.039052298248 159.259932401882
0.978837000000 -20.306439986002 166.047462380241
0.984836000000 -18.749023941882 171.757624006185
0.990835000000 -17.271286946139 170.955490397343
0.996834000000 -15.857997800973 169.424696946544
1.002833000000 -14.580968462743 164.894121461263
1.008832000000 -13.409924395210 159.416274036139
1.014831000000 -12.462845885471 152.037968498692
1.020830000000 -11.655791206466 144.847146337541
1.026829000000 -10.970750324338 136.456647618350
1.032828000000 -10.475270646440 128.428806907714
1.038827000000 -10.045394743366 120.196451252995
1.044826000000 -9.745653533862 111.927082880482
1.050825000000 -9.486799414765 103.530746648828
1.056824000000 -9.258186013069 94.734176686261
1.062823000000 -9.127402959037 85.447278262331
1.068822000000 -9.153823077897 75.116848120224
1.074821000000 -9.550416797006 64.934978213684
1.080820000000 -10.310625075333 57.102756165525
1.086819000000 -10.862261715211 53.327188061091
1.092818000000 -10.776943080145 48.564527467612
1.098817000000 -10.881719065930 41.078206174336
1.104816000000 -11.130138216082 34.956270618516
1.110815000000 -11.182546771314 28.502507267191
1.116814000000 -11.311919809573 20.109834489036
1.122813000000 -11.793687679898 11.625619514627
1.128812000000 -12.390569821133 5.528283853115
1.134811000000 -12.669120038304 -0.680574613164
1.140810000000 -13.115333879659 -8.601305876106
1.146809000000 -13.868638656293 -16.250368186033
1.152808000000 -14.889925905533 -21.823859115036
1.158807000000 -15.670130889420 -25.878485902871
1.164806000000 -16.628618128693 -31.625656109016
1.170805000000 -17.897851740812 -35.081344599745
1.176804000000 -18.982833998012 -35.915908433797
1.182803000000 -19.985947947190 -36.674536331440
1.188802000000 -21.292614743301 -33.925235951459
1.194801000000 -21.705728515475 -25.034826557612
1.200800000000 -21.145058860707 -18.656256408361
1.206799000000 -20.185827976338 -15.371436003830
1.212798000000 -18.920404753516 -15.020884680166
1.218797000000 -17.852474347132 -19.019059948547
1.224796000000 -17.221420870595 -22.715065921730
1.230795000000 -16.283314649829 -25.957248587443
1.236794000000 -15.410282890507 -31.461359311117
1.242793000000 -14.567523318781 -38.174671506592
1.248792000000 -13.943225469962 -45.738658552707
1.254791000000 -13.327008293005 -53.456521657393
1.260790000000 -12.909824280450 -63.232852823100
1.266789000000 -12.732934538454 -72.875853525311
1.272788000000 -12.673190623936 -82.027845668009
1.278787000000 -12.673100261091 -90.219897423165
1.284786000000 -12.520741766997 -98.458664686147
1.290785000000 -12.581016132274 -109.460074303275
1.296784000000 -13.361268709527 -119.282952435077
1.302783000000 -14.284804433714 -124.248433384642
1.308782000000 -14.678745096421 -125.835661525776
1.314781000000 -14.572557831977 -127.838539331431
1.320780000000 -14.231281346021 -132.716428415531
1.326779000000 -14.232047516933 -138.899536323956
1.332778000000 -14.379457664641 -143.828472538035
1.338777000000 -14.321983286483 -148.808972837360
1.344776000000 -14.333049702588 -155.001167951210
1.350775000000 -14.553713195725 -160.856335486554
1.356774000000 -14.872281574536 -165.052189649243
1.362773000000 -14.849278524083 -168.083642186064
1.368772000000 -14.675801823434 -172.860443036204
1.374771000000 -14.731143006611 -178.843592603924
1.380770000000 -14.833213808421 175.553959838057
1.386769000000 -15.147157644156 170.047062162313
1.392768000000 -15.544416811058 166.570719493808
1.398767000000 -15.768137307061 163.485670051293
1.404766000000 -16.057165051949 161.370747105405
1.410765000000 -16.194693704110 160.024316455337
1.416764000000 -16.242650218333 158.771361887317
1.422763000000 -16.235807677140 157.240401076275
1.428762000000 -16.262710642725 155.923892315889
1.434761000000 -16.140722026928 156.188064351615
1.440760000000 -15.589808952405 156.002319751842
1.446759000000 -14.906769700894 153.459808321329
1.452758000000 -14.373754438984 149.683585517917
1.458757000000 -13.958762813411 145.814327620116
1.464756000000 -13.507513257185 141.685507246251
1.470755000000 -13.126596055309 136.908349906792
1.476754000000 -12.812001714907 132.216505590586
1.482753000000 -12.440476772088 127.719154575453
1.488752000000 -12.021246818726 123.104760268612
1.494751000000 -11.611297019686 118.013221402119
1.500750000000 -11.220463904453 112.133390077248
1.506749000000 -10.998254770980 105.935000029567
1.512748000000 -10.856855332434 99.762923774567
1.518747000000 -10.761346562427 93.845092689462
1.524746000000 -10.679902565253 87.756084851121
1.530745000000 -10.737352312046 82.116017495691
1.536744000000 -10.733939090079 77.443978988859
1.542743000000 -10.678315615876 72.374876720705
1.548742000000 -10.617485349811 67.146738424832
1.554741000000 -10.590116630106 61.629812922176
1.560740000000 -10.523692568316 56.367488916754
1.566739000000 -10.433024444065 50.801275390214
1.572738000000 -10.343909356753 44.870418798137
1.578737000000 -10.360301483107 38.321994710752
1.584736000000 -10.543229517038 32.060940151184
1.590735000000 -10.737554744730 26.457870753491
1.596734000000 -10.879501895329 20.545280307053
1.602733000000 -11.083204064324 14.711325274454
1.608732000000 -11.296721049581 8.840645036093
1.614731000000 -11.589354974060 3.187739973774
1.620730000000 -11.882626734886 -2.395949863404
1.626729000000 -12.233670956188 -8.560367749540
1.632728000000 -12.708834692465 -14.454011307313
1.638727000000 -13.291499246261 -19.084890572263
1.644726000000 -13.740349100470 -22.261444799235
1.650725000000 -14.027072607667 -26.090109143974
1.656724000000 -14.486252161136 -30.275567402215
1.662723000000 -15.086621190827 -33.578810353118
1.668722000000 -15.728551855985 -35.106161367663
1.674721000000 -16.008743340080 -35.796175434034
1.680720000000 -16.280976911920 -38.280732746922
1.686719000000 -16.647343868780 -39.898002880238
1.692718000000 -16.954674400711 -40.268712269783
1.698717000000 -16.942480370775 -40.226166680641
1.704716000000 -16.891986373379 -41.448000262373
1.710715000000 -16.774924016038 -41.460074989723
1.716714000000 -16.311511196408 -42.825419193401
1.722713000000 -15.909456028825 -45.436153821538
1.728712000000 -15.484677089021 -48.326692058109
1.734711000000 -15.067145091795 -51.864079833675
1.740710000000 -14.642624642963 -55.225706956449
1.746709000000 -14.156992358558 -59.210936813858
1.752708000000 -13.659840514015 -63.722766706583
1.758707000000 -13.213548244872 -68.952530394302
1.764706000000 -12.827936171284 -74.796331741331
1.770705000000 -12.500825208584 -80.817621970792
1.776704000000 -12.224763318980 -86.598977498834
1.782703000000 -11.899456285712 -92.139286687848
1.788702000000 -11.542971173880 -98.473531851243
1.794701000000 -11.176028581832 -105.341631652989
1.800700000000 -10.854793296194 -113.420727691614
1.806699000000 -10.699175605494 -122.226294177783
1.812698000000 -10.697161650609 -131.361745421166
1.818697000000 -10.882489050464 -140.272679034394
1.824696000000 -11.160633053521 -148.319728907033
1.830695000000 -11.658144021130 -155.679091004309
1.836694000000 -12.172230051678 -160.040459851699
1.842693000000 -12.344375316884 -164.016960231883
1.848692000000 -12.475712606204 -168.918981399119
1.854691000000 -12.648269873807 -173.454032189040
1.860690000000 -12.811375316219 -177.544564710460
1.866689000000 -12.810951244951 178.920881703411
1.872688000000 -12.745480986475 173.979154455410
1.878687000000 -12.858189878114 169.184421616275
1.884686000000 -12.854468100923 165.370238772889
1.890685000000 -12.728658030770 160.691403369366
1.896684000000 -12.669831357309 155.325309282543
1.902683000000 -12.704915633257 150.171624350865
1.908682000000 -12.747635513349 146.112900977416
1.914681000000 -12.726362351917 142.264034242436
1.920680000000 -12.589534899116 138.702702124888
1.926679000000 -12.405772719342 133.943863290515
1.932678000000 -12.313358015656 129.079394271480
1.938677000000 -12.168268787553 124.191970612184
1.944676000000 -12.022795329920 118.368167030532
1.950675000000 -12.059063204144 111.778628912847
1.956674000000 -12.314857209020 105.416784222811
1.962673000000 -12.694646781226 100.719588438708
1.968672000000 -12.914745829306 97.259253278413
1.974671000000 -13.031446824599 92.885231231674
1.980670000000 -13.229306671193 88.880944948704
1.986669000000 -13.371714261794 85.366175863528
1.992668000000 -13.451307451037 82.412506301711
1.998667000000 -13.438166662134 79.101210756170
2.004666000000 -13.481841982416 75.003486450444
2.010665000000 -13.723235327853 71.175433109642
2.016664000000 -13.941607163076 69.030061738616
2.022663000000 -13.850672976192 67.742438794074
2.028662000000 -13.638392221017 64.497327649870
2.034661000000 -13.639113951164 60.905061531726
2.040660000000 -13.699238260346 58.414695874288
2.046659000000 -13.614170117130 56.663008538198
2.052658000000 -13.428619364855 53.894754061014
2.058657000000 -13.304973835187 50.793459795479
2.064656000000 -13.133746088490 47.953869230792
2.070655000000 -12.856242013029 44.840250470988
2.076654000000 -12.592880312910 40.767110711650
2.082653000000 -12.457220702030 36.756938048771
2.088652000000 -12.287497573807 33.290811185711
2.094651000000 -12.028890471412 29.000588280575
2.100650000000 -11.837578862726 24.082888308490
2.106649000000 -11.726485769411 19.150983543983
2.112648000000 -11.618568508061 14.598965163501
2.118647000000 -11.439950392440 10.151367576312
2.124646000000 -11.296476180363 4.822371749301
2.130645000000 -11.264133501288 -0.357460005432
2.136644000000 -11.247789816488 -5.362820111577
2.142643000000 -11.224479015072 -10.263545751044
2.148642000000 -11.138695348662 -15.361716702436
2.154641000000 -11.152540655786 -20.844565611183
2.160640000000 -11.233621128498 -25.726201354636
2.166639000000 -11.312045608321 -29.939103624421
2.172638000000 -11.259280924903 -34.297141079519
2.178637000000 -11.239744064016 -39.567986415259
2.184636000000 -11.335313963905 -44.668871382719
2.190635000000 -11.452175305340 -49.512394471448
2.196634000000 -11.480414594610 -54.046907674170
2.202633000000 -11.439413508434 -59.294855806312
2.208632000000 -11.517298347716 -65.139460197113
2.214631000000 -11.690571487775 -70.530116630711
2.220630000000 -11.822618283937 -75.419835561338
2.226629000000 -11.876616988903 -80.761389600316
2.232628000000 -11.973191901636 -86.439303931393
2.238627000000 -12.129852360185 -91.511475368774
2.244626000000 -12.233276418448 -95.974730145078
2.250625000000 -12.185073549607 -100.528955371982
2.256624000000 -12.159243241447 -105.939383314569
2.262623000000 -12.292835108857 -111.536605651817
2.268622000000 -12.475438303422 -115.942844878983
2.274621000000 -12.392390934145 -119.898425962984
2.280620000000 -12.246878250809 -125.316138668630
2.286619000000 -12.253512653795 -131.544800274320
2.292618000000 -12.309367989604 -137.130367301417
2.298617000000 -12.286032577854 -142.426709755409
2.304616000000 -12.142724400039 -148.460875638117
2.310615000000 -12.110792520582 -155.980072719683
2.316614000000 -12.298508701485 -162.806923742218
2.322613000000 -12.534996685201 -168.622266827696
2.328612000000 -12.711597045558 -173.691198301015
2.334611000000 -12.839739873219 -178.808870269699
2.340610000000 -12.994018203820 175.829860796316
2.346609000000 -13.231781662721 170.919918812660
2.352608000000 -13.392424929565 166.855438814686
2.358607000000 -13.388845191886 162.612057088104
2.364606000000 -13.459204492530 157.199147747155
2.370605000000 -13.718003823126 152.440264828251
2.376604000000 -13.824640344873 149.053902101912
2.382603000000 -13.759749239469 144.907028516896
2.388602000000 -13.682175143319 139.681141521006
2.394601000000 -13.781396794669 134.379816651327
2.400600000000 -13.996124260919 130.226750499031
2.406599000000 -14.140007163230 127.230471035602
2.412598000000 -14.110753059311 124.607795759235
2.418597000000 -14.056385242578 121.093079379321
2.424596000000 -14.046808532942 117.669706839813
2.430595000000 -14.003010481795 114.861243927017
2.436594000000 -13.858638296451 112.105546470658
2.442593000000 -13.673786955082 108.470105815148
2.448592000000 -13.600221033745 104.788914718196
2.454591000000 -13.586319969281 101.523834810395
2.460590000000 -13.508738627543 98.828974915259
