# GHZ S DB R 50.000000000000
0.001000000000 0.109804231639 -3.049573296029
0.006999000000 -0.151975950765 -19.783720298612
0.012998000000 -0.302494964357 -36.120319186571
0.018997000000 -0.344766326330 -50.679786246937
0.024996000000 -0.524344189795 -66.712208311792
0.030995000000 -1.058857780002 -82.984342769127
0.036994000000 -2.550428476865 -95.383002892347
0.042993000000 -1.294993585510 -98.112821119902
0.048992000000 -0.846374987086 -113.388707779065
0.054991000000 -0.754074755556 -126.683222065188
0.060990000000 -0.716836526677 -138.218586633605
0.066989000000 -0.601909035303 -150.921807059803
0.072988000000 -0.593964621877 -162.698617195319
0.078987000000 -0.628798180840 -174.304683551212
0.084986000000 -0.682698859856 174.529012843094
0.090985000000 -0.717473144274 163.768685079573
0.096984000000 -0.774436423353 153.062957405766
0.102983000000 -0.799692621444 142.453197176305
0.108982000000 -0.840553669522 131.897246521391
0.114981000000 -0.889094771526 121.367596849443
0.120980000000 -0.968768945623 110.911065831057
0.126979000000 -1.079516039800 100.508786893049
0.132978000000 -1.221038512492 89.865815540671
0.138977000000 -1.616436471622 78.780529308518
0.144976000000 -2.574757481977 69.580972807505
0.150975000000 -2.705029453015 68.179723741173
0.156974000000 -2.024116686428 63.592020929271
0.162973000000 -1.327083998593 53.007505534794
0.168972000000 -1.038412660822 41.576866862990
0.174971000000 -0.924431951929 29.826810354629
0.180970000000 -0.901688430154 18.356919968990
0.186969000000 -0.921820370695 7.109519812949
0.192968000000 -0.967192471498 -4.011147117186
0.198967000000 -1.033750829399 -15.103837278619
0.204966000000 -1.093695292191 -26.244905778163
0.210965000000 -1.180700714413 -37.681458109401
0.216964000000 -1.324192755361 -49.413564049468
0.222963000000 -1.520380227901 -61.383509921913
0.228962000000 -1.822518891155 -73.296293169512
0.234961000000 -2.143336076064 -84.715935008454
0.240960000000 -2.441695538244 -95.789024324602
0.246959000000 -2.647265891131 -106.438147022276
0.252958000000 -2.788526710830 -117.139409935415
0.258957000000 -2.764539374355 -128.421887609219
0.264956000000 -2.761083595292 -140.862858149657
0.270955000000 -2.864609862152 -153.729462631872
0.276954000000 -2.944993157168 -166.864161004351
0.282953000000 -3.097652527200 179.725577467671
0.288952000000 -3.256080166602 166.474015766064
0.294951000000 -3.349685980636 153.193212503363
0.300950000000 -3.374631121720 139.346757712446
0.306949000000 -3.383993364339 125.164392169638
0.312948000000 -3.388291484545 110.031501820660
0.318947000000 -3.573401830602 94.332612025325
0.324946000000 -3.960194244636 81.345209975827
0.330945000000 -3.704969391309 69.424955009076
0.336944000000 -3.382950382097 54.511246767762
0.342943000000 -3.298943869595 38.955607551189
0.348942000000 -3.309051699805 24.112894130453
0.354941000000 -3.342496984959 9.739306228973
0.360940000000 -3.447390601200 -3.981398776062
0.366939000000 -3.554283386962 -16.631648290113
0.372938000000 -3.621629520417 -28.348796873678
0.378937000000 -3.603224236046 -39.271033274349
0.384936000000 -3.485291361036 -49.799953231139
0.390935000000 -3.307368531497 -60.516891421005
0.396934000000 -3.165470336368 -71.137870273429
0.402933000000 -3.010969507124 -81.424007303415
0.408932000000 -2.845535420274 -91.628904700958
0.414931000000 -2.686324007701 -101.565235962126
0.420930000000 -2.493700249527 -111.423539912777
0.426929000000 -2.284401087623 -121.448977726883
0.432928000000 -2.103813947730 -131.656189599958
0.438927000000 -1.965162852258 -141.983628726965
0.444926000000 -1.879998406551 -152.308058408937
0.450925000000 -1.853904822657 -162.340642873553
0.456924000000 -1.818912915545 -172.309384670470
0.462923000000 -1.832313532675 177.708582177512
0.468922000000 -1.866057607860 167.815374680731
0.474921000000 -1.932359260202 158.068363021804
0.480920000000 -1.985157563300 148.438254919185
0.486919000000 -2.055014924459 138.663616354239
0.492918000000 -2.151455015026 128.849162619996
0.498917000000 -2.271284510490 119.036175535705
0.504916000000 -2.400146505477 109.205233038781
0.510915000000 -2.549962699504 99.195863422454
0.516914000000 -2.723126885762 89.153092106600
0.522913000000 -2.900270339537 78.876087227039
0.528912000000 -3.116302008900 68.424561308415
0.534911000000 -3.294450787124 57.800895786953
0.540910000000 -3.469775208844 46.530696562355
0.546909000000 -3.646264763880 34.498626167335
0.552908000000 -3.894261371017 21.780093041089
0.558907000000 -4.180027578332 8.644928084467
0.564906000000 -4.520094617763 -5.246634160097
0.570905000000 -4.948397024362 -19.591116070826
0.576904000000 -5.413374300902 -34.195995487587
0.582903000000 -5.888813320197 -49.465962519245
0.588902000000 -6.409782422986 -65.053947433762
0.594901000000 -6.886772314569 -80.684824195608
0.600900000000 -7.278233910635 -96.598171681176
0.606899000000 -7.623736907338 -112.602756522667
0.612898000000 -7.858649580204 -128.104278478528
0.618897000000 -7.958177774881 -143.322896767186
0.624896000000 -7.967048614273 -158.162583147703
0.630895000000 -7.859369662117 -172.171023677350
0.636894000000 -7.591281159848 174.397734659958
0.642893000000 -7.191121234930 161.147718254008
0.648892000000 -6.714677963748 147.918949618278
0.654891000000 -6.202876118031 134.394081737159
0.660890000000 -5.729937867716 120.446519979980
0.666889000000 -5.383435567256 106.366095504501
0.672888000000 -5.164452205268 92.995800225934
0.678887000000 -4.985819881339 80.235406704167
0.684886000000 -4.802833448163 68.206488633682
0.690885000000 -4.624224412522 56.053668880190
0.696884000000 -4.537585812290 44.176951421106
0.702883000000 -4.486887297537 32.595367151752
0.708882000000 -4.447894929130 21.501903083850
0.714881000000 -4.391257330873 10.308582309545
0.720880000000 -4.398278316275 -0.899577791964
0.726879000000 -4.439645553486 -11.887106177467
0.732878000000 -4.496242229385 -22.807211173789
0.738877000000 -4.599006472167 -33.626623977935
0.744876000000 -4.729769594764 -44.259463961697
0.750875000000 -4.871088137368 -54.783914973789
0.756874000000 -5.096326169664 -65.298868098958
0.762873000000 -5.325035512775 -75.501605624300
0.768872000000 -5.581065270241 -85.783270705212
0.774871000000 -5.868079446766 -96.141973611979
0.780870000000 -6.219805308024 -106.755674190238
0.786869000000 -6.668454890289 -117.443513758114
0.792868000000 -7.216164597354 -127.985088922695
0.798867000000 -7.884271887830 -137.586885558112
0.804866000000 -8.460024159920 -146.545617679124
0.810865000000 -9.007551100171 -155.845367651014
0.816864000000 -9.633774449585 -165.911090942046
0.822863000000 -10.433811895567 -176.057606033242
0.828862000000 -11.333012412337 173.627202499394
0.834861000000 -12.387503543903 163.151499678049
0.840860000000 -13.569002898168 152.234135224140
0.846859000000 -14.950317111621 140.048783382358
0.852858000000 -16.690173215968 125.406625455134
0.858857000000 -19.039473410026 107.562020954742
0.864856000000 -22.029038205245 83.003491581792
0.870855000000 -24.472607311455 42.157007004777
0.876854000000 -22.843997650611 -11.132351673625
0.882853000000 -18.895389214033 -49.259115347597
0.888852000000 -15.725007979480 -76.733447153477
0.894851000000 -13.584856497578 -98.412003803073
0.900850000000 -12.155274997718 -117.590611409508
0.906849000000 -11.345377423025 -134.797749342625
0.912848000000 -11.048398945794 -149.634224533919
0.918847000000 -10.992534297110 -162.069741536023
0.924846000000 -11.117703326324 -172.406823630579
0.930845000000 -11.093562284086 179.147059127870
0.936844000000 -10.999573880835 169.278164887589
0.942843000000 -11.280057433778 159.037246139196
0.948842000000 -11.943575761897 150.592476919730
0.954841000000 -12.605295866150 145.579973619935
0.960840000000 -12.890491708887 142.183662898408
0.966839000000 -12.918033761583 137.530937988796
0.972838000000 -13.070279751011 130.997052394166
0.978837000000 -13.538985261121 125.714397369781
0.984836000000 -13.812940494249 121.740992503849
0.990835000000 -14.175186297593 115.954298632787
0.996834000000 -14.898146111019 111.508206357169
1.002833000000 -15.717665445712 110.280273798714
1.008832000000 -16.105390790449 111.020496529945
1.014831000000 -16.223001516562 111.412106691955
1.020830000000 -16.169037911230 111.794896064871
1.026829000000 -15.888753733884 111.775300837882
1.032828000000 -15.446540922151 111.234789528167
1.038827000000 -14.881290515235 109.375476445342
1.044826000000 -14.320856710088 107.189275430529
1.050825000000 -13.591982826094 103.684220570391
1.056824000000 -12.907634912273 98.633129911406
1.062823000000 -12.236300391197 92.148071461452
1.068822000000 -11.777669327182 84.237964968794
1.074821000000 -11.575062786352 76.540188264913
1.080820000000 -11.368695443789 69.607728710570
1.086819000000 -11.095465517559 61.165677448930
1.092818000000 -11.069865293024 51.215634664120
1.098817000000 -11.412334968675 41.430438978997
1.104816000000 -11.986174494435 32.468805009074
1.110815000000 -12.928634391759 24.274375592079
1.116814000000 -14.261965426173 20.878451471197
1.122813000000 -14.952097404710 23.245351620508
1.128812000000 -14.576799096254 24.936942138767
1.134811000000 -13.878649794806 20.781019954758
1.140810000000 -13.628510204456 13.341526289779
1.146809000000 -13.818641025188 6.279782044544
1.152808000000 -14.101838899382 1.069577098168
1.158807000000 -14.304977758609 -4.128007098445
1.164806000000 -14.670656592934 -9.367688780151
1.170805000000 -15.064398500596 -13.998391233932
1.176804000000 -15.386904400846 -18.222671462060
1.182803000000 -15.754583480970 -22.649489656206
1.188802000000 -16.201532280562 -25.402239838690
1.194801000000 -16.318626200849 -27.480663804852
1.200800000000 -16.395397344173 -30.939818471835
1.206799000000 -16.683895337396 -33.345876336722
1.212798000000 -16.572827223060 -33.677539335675
1.218797000000 -16.267269605571 -36.626614762807
1.224796000000 -16.093653139744 -38.608544173940
1.230795000000 -15.535495218734 -40.926351149747
1.236794000000 -14.957025885971 -45.156692581267
1.242793000000 -14.371469529480 -50.353528530310
1.248792000000 -13.829756359759 -56.844585145202
1.254791000000 -13.429696917972 -64.791211822841
1.260790000000 -13.274068655865 -73.320968671627
1.266789000000 -13.245227682642 -82.199364962496
1.272788000000 -13.536814393804 -90.730888495392
1.278787000000 -14.021881424158 -96.281434220114
1.284786000000 -14.180136470686 -99.151216593040
1.290785000000 -13.907528195381 -102.677253240246
1.296784000000 -13.523327920825 -107.647959095092
1.302783000000 -13.101256989936 -114.089773842360
1.308782000000 -12.774740205128 -122.021461810591
1.314781000000 -12.630305431429 -130.731242678388
1.320780000000 -12.779885461775 -139.442989372747
1.326779000000 -13.126130721301 -145.914303595580
1.332778000000 -13.336853999989 -151.456028167285
1.338777000000 -13.382918008984 -157.295905885662
1.344776000000 -13.468868556132 -163.897357137734
1.350775000000 -13.717284922977 -170.297009095836
1.356774000000 -14.010982501595 -175.412789564400
1.362773000000 -14.080170046772 179.862410611147
1.368772000000 -14.163176622303 173.571992331906
1.374771000000 -14.512007743724 167.887657333486
1.380770000000 -14.737408394246 163.393316369426
1.386769000000 -14.950474516308 158.472154327061
1.392768000000 -15.249698017959 153.743480077595
1.398767000000 -15.619079784133 149.212964926271
1.404766000000 -16.232522939185 146.015499636168
1.410765000000 -16.805507572444 145.269499286071
1.416764000000 -17.144173975291 145.719615455545
1.422763000000 -17.300111497975 145.970038292590
1.428762000000 -17.298477259017 146.383638334877
1.434761000000 -17.216493273359 147.028202514567
1.440760000000 -16.877275880759 148.170907277098
1.446759000000 -16.227787586448 148.071413100317
1.452758000000 -15.632964689304 146.277193591485
1.458757000000 -14.991132378484 144.711636945066
1.464756000000 -14.296956726127 141.676225023683
1.470755000000 -13.577271518834 138.030857747586
1.476754000000 -12.940651709650 133.214932420826
1.482753000000 -12.394803422463 128.039376030964
1.488752000000 -11.901291039316 122.762998074983
1.494751000000 -11.506196437224 117.598482599023
1.500750000000 -11.066208217500 112.454260314981
1.506749000000 -10.711546780062 106.545452354468
1.512748000000 -10.466024983081 100.661310709110
1.518747000000 -10.214595804488 94.914338919851
1.524746000000 -9.959582826699 88.899905821966
1.530745000000 -9.733819591721 82.696236536784
1.536744000000 -9.566682457688 75.831320025576
1.542743000000 -9.572913638172 68.487773776362
1.548742000000 -9.761328890254 61.474548481288
1.554741000000 -10.023302756743 55.439636822687
1.560740000000 -10.271993701630 50.339763282079
1.566739000000 -10.448118660529 46.384778285418
1.572738000000 -10.422099544237 42.584977315401
1.578737000000 -10.363948256363 37.969818265605
1.584736000000 -10.350825473647 33.245251646136
1.590735000000 -10.271401918619 28.070460440071
1.596734000000 -10.214507328073 22.080555769915
1.602733000000 -10.229424679782 15.837533433599
1.608732000000 -10.274774913947 9.171035542015
1.614731000000 -10.450322033411 1.966065205913
1.620730000000 -10.769631560044 -5.157711811428
1.626729000000 -11.260854991148 -12.076085821433
1.632728000000 -11.785098803615 -17.938425568182
1.638727000000 -12.292599942692 -23.124333503038
1.644726000000 -12.703955579385 -27.834763498292
1.650725000000 -13.112242102387 -33.126307600207
1.656724000000 -13.743138959062 -38.358981031318
1.662723000000 -14.523321417549 -41.861764119398
1.668722000000 -15.077202002576 -43.941249134780
1.674721000000 -15.420480741708 -47.582032163088
1.680720000000 -16.069601716013 -52.717541450698
1.686719000000 -17.156132815809 -55.858875745921
1.692718000000 -18.135245068405 -54.381485271492
1.698717000000 -18.397127134759 -52.272480809253
1.704716000000 -18.670945444967 -51.622084758559
1.710715000000 -18.720722964977 -49.584478926748
1.716714000000 -18.396829633474 -48.866596020318
1.722713000000 -18.050542706967 -48.789547065305
1.728712000000 -17.438840827424 -49.563444114302
1.734711000000 -16.833582544543 -51.962299748006
1.740710000000 -16.328483685910 -54.596844668942
1.746709000000 -15.727152861289 -57.494912762421
1.752708000000 -15.049974528349 -61.373443661648
1.758707000000 -14.482587381257 -66.674036774831
1.764706000000 -14.081414386807 -72.549518197414
1.770705000000 -13.736063037665 -77.898309179125
1.776704000000 -13.384131138711 -82.976117710348
1.782703000000 -12.913227586948 -88.263280008068
1.788702000000 -12.463055704125 -94.280257807684
1.794701000000 -12.089058367074 -100.816517598174
1.800700000000 -11.737722714654 -107.754876894215
1.806699000000 -11.412354268097 -114.676593271023
1.812698000000 -11.100587979204 -122.200126741934
1.818697000000 -10.831465065166 -129.981128320692
1.824696000000 -10.616672681790 -137.956108632396
1.830695000000 -10.504104167760 -145.869270508851
1.836694000000 -10.415813286005 -153.255731924135
1.842693000000 -10.370095044318 -161.226310058635
1.848692000000 -10.513174370931 -169.367116918600
1.854691000000 -10.844456491029 -176.332151506707
1.860690000000 -11.201484834530 178.421607222425
1.866689000000 -11.382551547882 173.968881741941
1.872688000000 -11.464557585779 169.466254176245
1.878687000000 -11.505479398189 164.886435608864
1.884686000000 -11.459725422069 160.116435275134
1.890685000000 -11.377692442285 155.064575910216
1.896684000000 -11.302080918899 149.636585111143
1.902683000000 -11.291697598602 144.087632041854
1.908682000000 -11.327600691750 139.436695258536
1.914681000000 -11.334819765534 135.152277162986
1.920680000000 -11.240490229952 131.040818609906
1.926679000000 -11.152960104008 126.280439812466
1.932678000000 -11.072895348662 121.762041576980
1.938677000000 -10.889183436712 116.662921067240
1.944676000000 -10.804726829926 110.449018254387
1.950675000000 -10.913610165178 104.271602124842
1.956674000000 -11.078226468061 98.367433490278
1.962673000000 -11.291309066772 92.701629828784
1.968672000000 -11.521789907704 87.454038935051
1.974671000000 -11.769954410126 82.064267859924
1.980670000000 -12.082229077660 77.413417570983
1.986669000000 -12.313194180695 73.621206452917
1.992668000000 -12.462867653705 69.650578665470
1.998667000000 -12.667289272606 65.122647658153
2.004666000000 -13.080262801814 60.473689277874
2.010665000000 -13.604703005996 57.882166959104
2.016664000000 -13.854646393805 56.360807565441
2.022663000000 -13.908503954123 54.128021272478
2.028662000000 -14.147641304345 50.815110459972
2.034661000000 -14.484871823612 49.094265259930
2.040660000000 -14.581144808677 48.227627036850
2.046659000000 -14.516783776298 46.461999162412
2.052658000000 -14.647724794315 43.594220665931
2.058657000000 -14.814199157764 42.237345494810
2.064656000000 -14.727640530973 41.326038014723
2.070655000000 -14.500551076206 39.643947149167
2.076654000000 -14.293144962579 37.048389416704
2.082653000000 -14.146974923050 35.002071311345
2.088652000000 -13.848401164066 33.057129884007
2.094651000000 -13.497359692688 29.810207761263
2.100650000000 -13.160507792039 25.629523240913
2.106649000000 -12.994536397807 21.114448009504
2.112648000000 -12.837122841408 17.245183150153
2.118647000000 -12.615976148040 13.206647863865
2.124646000000 -12.431235943725 8.774476726139
2.130645000000 -12.287249640298 4.238889541454
2.136644000000 -12.169773653020 -0.099910370035
2.142643000000 -12.000916036530 -4.892030096516
2.148642000000 -11.850616184272 -9.865276821352
2.154641000000 -11.726313811866 -14.814033275042
2.160640000000 -11.597380546103 -19.625473909426
2.166639000000 -11.429023287087 -24.461223117290
2.172638000000 -11.279796312465 -30.254477683814
2.178637000000 -11.279606225684 -36.097460213210
2.184636000000 -11.332800166999 -41.308523219574
2.190635000000 -11.352861422020 -46.562744324210
2.196634000000 -11.328629163949 -51.847899525066
2.202633000000 -11.344032921413 -57.325375759986
2.208632000000 -11.441364225144 -62.497894363554
2.214631000000 -11.458187051993 -67.273808267521
2.220630000000 -11.391936967534 -72.654228781891
2.226629000000 -11.369430427506 -78.845517745637
2.232628000000 -11.399287938625 -84.764854577531
2.238627000000 -11.400986043182 -90.280826874501
2.244626000000 -11.327431017960 -95.903530154697
2.250625000000 -11.277891425457 -102.174097863282
2.256624000000 -11.369288512416 -108.419480373639
2.262623000000 -11.542118840165 -113.788338290207
2.268622000000 -11.599434616713 -118.273144658774
2.274621000000 -11.493766649873 -123.363163453397
2.280620000000 -11.497236201545 -128.976926204325
2.286619000000 -11.480435182179 -134.164540151418
2.292618000000 -11.348364953321 -139.630414207966
2.298617000000 -11.178365561774 -145.664815240762
2.304616000000 -11.023525637557 -152.723310436363
2.310615000000 -10.999987232054 -160.138319723084
2.316614000000 -11.065770042253 -166.859649903708
2.322613000000 -11.115686579491 -173.172460907149
2.328612000000 -11.182125674318 -179.270443670057
2.334611000000 -11.249558784664 174.653883869559
2.340610000000 -11.355459674631 168.554343279020
2.346609000000 -11.504442365618 162.994035647158
2.352608000000 -11.623264027883 157.727893689944
2.358607000000 -11.710560463485 152.291495604127
2.364606000000 -11.846516558267 146.745272056118
2.370605000000 -12.037949408888 141.586451627259
2.376604000000 -12.137157436371 136.553224813824
2.382603000000 -12.232431193643 130.947639440979
2.388602000000 -12.428279897450 125.424140492582
2.394601000000 -12.641253174254 120.901449330085
2.400600000000 -12.798886457350 116.974761447662
2.406599000000 -12.896565622403 112.946285430213
2.412598000000 -13.024373007389 108.932085534454
2.418597000000 -13.196002468170 105.181502011228
2.424596000000 -13.253337741483 102.001697630086
2.430595000000 -13.271777659232 98.592270758454
2.436594000000 -13.351806749025 94.492621894525
2.442593000000 -13.560418977343 91.044945543157
2.448592000000 -13.752667423314 88.454559736765
2.454591000000 -13.835583370513 86.010322246024
2.460590000000 -13.866755154217 83.185778671302
